                ** sch_path: /foss/designs/ihp/nmos/nmos_tb.sch
                DC transfer characteristic  Sun Oct 19 10:04:18  2025
--------------------------------------------------------------------------------
Index   v-sweep         @n.xm1.nsg13_lv @n.xm1.nsg13_lv @n.xm1.nsg13_lv 
--------------------------------------------------------------------------------
0	0.000000e+00	2.194364e-10	6.791806e-09	1.178187e-10	
1	1.000000e-01	4.907297e-09	1.528376e-07	2.698640e-09	
2	2.000000e-01	1.067990e-07	3.180401e-06	5.981948e-08	
3	3.000000e-01	1.365118e-06	2.697394e-05	6.500036e-07	
4	4.000000e-01	6.233708e-06	7.328544e-05	1.961871e-06	
5	5.000000e-01	1.645579e-05	1.324355e-04	3.596425e-06	
6	6.000000e-01	3.281686e-05	1.945926e-04	5.552760e-06	
7	7.000000e-01	5.523681e-05	2.527308e-04	7.855380e-06	
8	8.000000e-01	8.309763e-05	3.029837e-04	1.054282e-05	
9	9.000000e-01	1.155165e-04	3.437722e-04	1.371123e-05	
10	1.000000e+00	1.515306e-04	3.749376e-04	1.755678e-05	
11	1.100000e+00	1.902011e-04	3.970209e-04	2.241676e-05	
12	1.200000e+00	2.306574e-04	4.107823e-04	2.879820e-05	
13	1.300000e+00	2.721050e-04	4.169635e-04	3.736791e-05	
14	1.400000e+00	3.138200e-04	4.162397e-04	4.887768e-05	
15	1.500000e+00	3.551450e-04	4.092787e-04	6.402461e-05	
16	1.600000e+00	3.954926e-04	3.968256e-04	8.328628e-05	
17	1.700000e+00	4.343560e-04	3.797492e-04	1.067936e-04	
18	1.800000e+00	4.713211e-04	3.590269e-04	1.342895e-04	
19	1.900000e+00	5.060742e-04	3.356812e-04	1.651797e-04	
20	2.000000e+00	5.384032e-04	3.106992e-04	1.986454e-04	
21	2.100000e+00	5.681896e-04	2.849635e-04	2.337732e-04	
22	2.200000e+00	5.953961e-04	2.592098e-04	2.696668e-04	

                ** sch_path: /foss/designs/ihp/nmos/nmos_tb.sch
                DC transfer characteristic  Sun Oct 19 10:04:18  2025
--------------------------------------------------------------------------------
Index   v-sweep         @n.xm1.nsg13_lv @n.xm1.nsg13_lv 
--------------------------------------------------------------------------------
0	0.000000e+00	7.141944e-16	2.895441e-01	
1	1.000000e-01	6.858260e-16	2.895441e-01	
2	2.000000e-01	7.741835e-16	2.895441e-01	
3	3.000000e-01	1.688366e-15	2.895441e-01	
4	4.000000e-01	2.705197e-15	2.895441e-01	
5	5.000000e-01	3.163214e-15	2.895441e-01	
6	6.000000e-01	3.411517e-15	2.895441e-01	
7	7.000000e-01	3.587608e-15	2.895441e-01	
8	8.000000e-01	3.732996e-15	2.895441e-01	
9	9.000000e-01	3.860772e-15	2.895441e-01	
10	1.000000e+00	3.975368e-15	2.895441e-01	
11	1.100000e+00	4.079008e-15	2.895441e-01	
12	1.200000e+00	4.173912e-15	2.895441e-01	
13	1.300000e+00	4.262852e-15	2.895441e-01	
14	1.400000e+00	4.348864e-15	2.895441e-01	
15	1.500000e+00	4.434566e-15	2.895441e-01	
16	1.600000e+00	4.521477e-15	2.895441e-01	
17	1.700000e+00	4.609722e-15	2.895441e-01	
18	1.800000e+00	4.698209e-15	2.895441e-01	
19	1.900000e+00	4.785139e-15	2.895441e-01	
20	2.000000e+00	4.868573e-15	2.895441e-01	
21	2.100000e+00	4.946850e-15	2.895441e-01	
22	2.200000e+00	5.018807e-15	2.895441e-01	