                ** sch_path: /foss/designs/ihp/nmos/nmos_tb.sch
                DC transfer characteristic  Sun Oct 19 16:39:11  2025
--------------------------------------------------------------------------------
Index   v-sweep         @n.xm1.nsg13_lv @n.xm1.nsg13_lv @n.xm1.nsg13_lv 
--------------------------------------------------------------------------------
0	0.000000e+00	2.531049e-10	7.963620e-09	1.162077e-10	
1	1.000000e-01	5.937884e-09	1.872725e-07	2.798291e-09	
2	2.000000e-01	1.263815e-07	3.572002e-06	5.906333e-08	
3	3.000000e-01	1.214388e-06	2.059840e-05	4.249354e-07	
4	4.000000e-01	4.595337e-06	4.828960e-05	1.038434e-06	
5	5.000000e-01	1.103627e-05	8.094489e-05	1.778935e-06	
6	6.000000e-01	2.080549e-05	1.142924e-04	2.650528e-06	
7	7.000000e-01	3.382873e-05	1.456974e-04	3.664135e-06	
8	8.000000e-01	4.983024e-05	1.736854e-04	4.840002e-06	
9	9.000000e-01	6.842740e-05	1.975358e-04	6.227542e-06	
10	1.000000e+00	8.919025e-05	2.169781e-04	7.938280e-06	
11	1.100000e+00	1.116740e-04	2.319493e-04	1.019777e-05	
12	1.200000e+00	1.354297e-04	2.424037e-04	1.341887e-05	
13	1.300000e+00	1.599993e-04	2.481884e-04	1.828104e-05	
14	1.400000e+00	1.849026e-04	2.490283e-04	2.575004e-05	
15	1.500000e+00	2.096319e-04	2.446855e-04	3.691003e-05	
16	1.600000e+00	2.336700e-04	2.352673e-04	5.254334e-05	
17	1.700000e+00	2.565390e-04	2.214687e-04	7.266852e-05	
18	1.800000e+00	2.778585e-04	2.045080e-04	9.642069e-05	
19	1.900000e+00	2.973827e-04	1.857916e-04	1.223804e-04	
20	2.000000e+00	3.150009e-04	1.665679e-04	1.490638e-04	
21	2.100000e+00	3.307110e-04	1.477508e-04	1.752639e-04	
22	2.200000e+00	3.445849e-04	1.299105e-04	2.001619e-04	

                ** sch_path: /foss/designs/ihp/nmos/nmos_tb.sch
                DC transfer characteristic  Sun Oct 19 16:39:11  2025
--------------------------------------------------------------------------------
Index   v-sweep         @n.xm1.nsg13_lv @n.xm1.nsg13_lv 
--------------------------------------------------------------------------------
0	0.000000e+00	1.519340e-15	2.547715e-01	
1	1.000000e-01	1.482610e-15	2.547715e-01	
2	2.000000e-01	2.058386e-15	2.547715e-01	
3	3.000000e-01	4.660402e-15	2.547715e-01	
4	4.000000e-01	6.376068e-15	2.547715e-01	
5	5.000000e-01	7.125109e-15	2.547715e-01	
6	6.000000e-01	7.543814e-15	2.547715e-01	
7	7.000000e-01	7.836126e-15	2.547715e-01	
8	8.000000e-01	8.069989e-15	2.547715e-01	
9	9.000000e-01	8.272425e-15	2.547715e-01	
10	1.000000e+00	8.456854e-15	2.547715e-01	
11	1.100000e+00	8.632080e-15	2.547715e-01	
12	1.200000e+00	8.805626e-15	2.547715e-01	
13	1.300000e+00	8.985466e-15	2.547715e-01	
14	1.400000e+00	9.180934e-15	2.547715e-01	
15	1.500000e+00	9.401169e-15	2.547715e-01	
16	1.600000e+00	9.649888e-15	2.547715e-01	
17	1.700000e+00	9.920419e-15	2.547715e-01	
18	1.800000e+00	1.019708e-14	2.547715e-01	
19	1.900000e+00	1.046228e-14	2.547715e-01	
20	2.000000e+00	1.070298e-14	2.547715e-01	
21	2.100000e+00	1.091279e-14	2.547715e-01	
22	2.200000e+00	1.109079e-14	2.547715e-01	