                ** sch_path: /foss/designs/ihp/nmos/nmos_tb.sch
                DC transfer characteristic  Sun Oct 19 16:36:33  2025
--------------------------------------------------------------------------------
Index   v-sweep         @n.xm1.nsg13_lv @n.xm1.nsg13_lv @n.xm1.nsg13_lv 
--------------------------------------------------------------------------------
0	0.000000e+00	2.212262e-11	5.981323e-10	1.809200e-11	
1	1.000000e-01	3.389178e-10	9.298621e-09	2.567196e-10	
2	2.000000e-01	5.335003e-09	1.475977e-07	4.148737e-09	
3	3.000000e-01	8.474021e-08	2.327827e-06	6.738317e-08	
4	4.000000e-01	1.145621e-06	2.658691e-05	8.777180e-07	
5	5.000000e-01	7.070476e-06	9.771385e-05	4.144727e-06	
6	6.000000e-01	2.229824e-05	2.158461e-04	8.963905e-06	
7	7.000000e-01	5.150018e-05	3.712230e-04	1.549219e-05	
8	8.000000e-01	9.654450e-05	5.270959e-04	2.363594e-05	
9	9.000000e-01	1.560533e-04	6.575442e-04	3.280280e-05	
10	1.000000e+00	2.268549e-04	7.524409e-04	4.272472e-05	
11	1.100000e+00	3.054057e-04	8.134274e-04	5.359855e-05	
12	1.200000e+00	3.886366e-04	8.473030e-04	6.582324e-05	
13	1.300000e+00	4.742047e-04	8.612753e-04	7.982054e-05	
14	1.400000e+00	5.604234e-04	8.611454e-04	9.596196e-05	
15	1.500000e+00	6.461054e-04	8.511235e-04	1.145392e-04	
16	1.600000e+00	7.304176e-04	8.341572e-04	1.357528e-04	
17	1.700000e+00	8.127746e-04	8.123031e-04	1.597109e-04	
18	1.800000e+00	8.927643e-04	7.870166e-04	1.864345e-04	
19	1.900000e+00	9.700990e-04	7.593517e-04	2.158661e-04	
20	2.000000e+00	1.044582e-03	7.300915e-04	2.478816e-04	
21	2.100000e+00	1.116084e-03	6.998326e-04	2.823029e-04	
22	2.200000e+00	1.184531e-03	6.690387e-04	3.189106e-04	

                ** sch_path: /foss/designs/ihp/nmos/nmos_tb.sch
                DC transfer characteristic  Sun Oct 19 16:36:33  2025
--------------------------------------------------------------------------------
Index   v-sweep         @n.xm1.nsg13_lv @n.xm1.nsg13_lv 
--------------------------------------------------------------------------------
0	0.000000e+00	9.881095e-17	4.551296e-01	
1	1.000000e-01	9.268518e-17	4.551296e-01	
2	2.000000e-01	8.781620e-17	4.551296e-01	
3	3.000000e-01	8.672333e-17	4.551296e-01	
4	4.000000e-01	1.214487e-16	4.551296e-01	
5	5.000000e-01	2.501473e-16	4.551296e-01	
6	6.000000e-01	3.501775e-16	4.551296e-01	
7	7.000000e-01	4.091196e-16	4.551296e-01	
8	8.000000e-01	4.558733e-16	4.551296e-01	
9	9.000000e-01	4.966760e-16	4.551296e-01	
10	1.000000e+00	5.301558e-16	4.551296e-01	
11	1.100000e+00	5.562177e-16	4.551296e-01	
12	1.200000e+00	5.763766e-16	4.551296e-01	
13	1.300000e+00	5.923220e-16	4.551296e-01	
14	1.400000e+00	6.053742e-16	4.551296e-01	
15	1.500000e+00	6.164539e-16	4.551296e-01	
16	1.600000e+00	6.261729e-16	4.551296e-01	
17	1.700000e+00	6.349258e-16	4.551296e-01	
18	1.800000e+00	6.429605e-16	4.551296e-01	
19	1.900000e+00	6.504282e-16	4.551296e-01	
20	2.000000e+00	6.574183e-16	4.551296e-01	
21	2.100000e+00	6.639815e-16	4.551296e-01	
22	2.200000e+00	6.701459e-16	4.551296e-01	